
Note-[RT_BS] Larger stack needed
  Note: Bumping stack limit from 8192 to 8250 Kbytes.

Chronologic VCS simulator copyright 1991-2016
Contains Synopsys proprietary information.
Compiler version L-2016.06_Full64; Runtime version L-2016.06_Full64;  Oct  5 01:32 2026
UVM_INFO /usr/synopsys/vcs-L-2016.06//etc/uvm-1.2/base/uvm_root.svh(402) @ 0: reporter [UVM/RELNOTES] 
----------------------------------------------------------------
UVM-1.2.Synopsys
(C) 2007-2014 Mentor Graphics Corporation
(C) 2007-2014 Cadence Design Systems, Inc.
(C) 2006-2014 Synopsys, Inc.
(C) 2011-2013 Cypress Semiconductor Corp.
(C) 2013-2014 NVIDIA Corporation
----------------------------------------------------------------

  ***********       IMPORTANT RELEASE NOTES         ************

  You are using a version of the UVM library that has been compiled
  with `UVM_NO_DEPRECATED undefined.
  See http://www.eda.org/svdb/view.php?id=3313 for more details.

  You are using a version of the UVM library that has been compiled
  with `UVM_OBJECT_DO_NOT_NEED_CONSTRUCTOR undefined.
  See http://www.eda.org/svdb/view.php?id=3770 for more details.

      (Specify +UVM_NO_RELNOTES to turn off this notice)


 VCS Coverage Metrics Release L-2016.06_Full64 Copyright (c) 1991-2016 by Synopsys Inc.
VCD+ Writer L-2016.06_Full64 Copyright (c) 1991-2016 by Synopsys Inc.
UVM_INFO @ 0: reporter [RNTST] Running test apb_wr_rd_test...
UVM_INFO ../tb/apb_base_test.sv(26) @ 0: uvm_test_top [apb_wr_rd_test] UVM_BASE_TEST Build_Phase Started
UVM_INFO ../tb/apb_env.sv(31) @ 0: uvm_test_top.env [apb_env] UVM_ENV Build_Phase Started

Note-[FCICIO] Instance coverage is ON
/mnt/mydata/UVM/apb_verif_uvm_env/sim/../tb/apb_coverage.sv, 10
apb_tb_uvm_pkg, "apb_tb_uvm_pkg::apb_coverage::apb_cg"
  Instance coverage is set (option.per_instance = 1) for covergroup 
  'apb_tb_uvm_pkg::apb_coverage::apb_cg'
  
  Covergroup Instance: tbench_top.me.obj.apb_cg 
  Design hierarchy: apb_tb_uvm_pkg

UVM_INFO ../tb/apb_agent.sv(35) @ 0: uvm_test_top.env.apb_agnt [apb_agent] UVM_AGENT Build_Phase Started
UVM_INFO ../tb/apb_driver.sv(27) @ 0: uvm_test_top.env.apb_agnt.driver [apb_driver] UVM_DRIVER Build_Phase Started
UVM_INFO ../tb/apb_sequencer.sv(18) @ 0: uvm_test_top.env.apb_agnt.sequencer [apb_sequencer] UVM_Sequencer Build_Phase
UVM_INFO ../tb/apb_agent.sv(49) @ 0: uvm_test_top.env.apb_agnt [apb_agent] UVM_AGENT Connect_Phase Started
UVM_INFO ../tb/apb_env.sv(41) @ 0: uvm_test_top.env [apb_env] UVM_ENV Connect_Phase Started
UVM_INFO ../tb/apb_base_test.sv(37) @ 0: uvm_test_top [apb_wr_rd_test] UVM_BASE_TEST End of Eloboration_Phase Started
----------------------------------------------------------------
Name                         Type                    Size  Value
----------------------------------------------------------------
uvm_test_top                 apb_wr_rd_test          -     @341 
  env                        apb_env                 -     @356 
    apb_agnt                 apb_agent               -     @373 
      driver                 apb_driver              -     @432 
        rsp_port             uvm_analysis_port       -     @451 
        seq_item_port        uvm_seq_item_pull_port  -     @441 
      monitor                apb_monitor             -     @413 
        item_collected_port  uvm_analysis_port       -     @422 
      sequencer              apb_sequencer           -     @461 
        rsp_export           uvm_analysis_export     -     @470 
        seq_item_export      uvm_seq_item_pull_imp   -     @588 
        arbitration_queue    array                   0     -    
        lock_queue           array                   0     -    
        num_last_reqs        integral                32    'd1  
        num_last_rsps        integral                32    'd1  
    apb_cov                  apb_coverage            -     @391 
      analysis_imp           uvm_analysis_imp        -     @400 
    apb_scb                  apb_scoreboard          -     @382 
      item_collected_export  uvm_analysis_imp        -     @609 
----------------------------------------------------------------
UVM_INFO ../tb/apb_driver.sv(36) @ 0: uvm_test_top.env.apb_agnt.driver [apb_driver] UVM_DRIVER Run_Phase Started
UVM_INFO ../tb/apb_monitor.sv(65) @ 85: uvm_test_top.env.apb_agnt.monitor [apb_monitor] [MON] WR  addr=0x0000c190 data=0x250fe8c6e2598559 strb=0xff rdata=0x0000000000000000 err=0
UVM_INFO ../tb/apb_coverage.sv(98) @ 85: uvm_test_top.env.apb_cov [apb_coverage] WRITE CALLED
UVM_INFO ../tb/apb_scoreboard.sv(81) @ 85: uvm_test_top.env.apb_scb [apb_scoreboard] [SCB] WR OK  addr=0x0000c190 wdata=0x250fe8c6e2598559 strb=0xff
UVM_INFO ../tb/apb_driver.sv(44) @ 95: uvm_test_top.env.apb_agnt.driver [apb_driver] Driving Transaction: addr=c190 write=1 wdata = 250fe8c6e2598559
UVM_INFO ../tb/apb_monitor.sv(65) @ 155: uvm_test_top.env.apb_agnt.monitor [apb_monitor] [MON] RD  addr=0x0000c190 data=0x250fe8c6e2598559 strb=0x00 rdata=0x250fe8c6e2598559 err=0
UVM_INFO ../tb/apb_coverage.sv(98) @ 155: uvm_test_top.env.apb_cov [apb_coverage] WRITE CALLED
UVM_INFO ../tb/apb_scoreboard.sv(90) @ 155: uvm_test_top.env.apb_scb [apb_scoreboard] [SCB] RD OK  addr=0x0000c190 exp=0x250fe8c6e2598559 got=0x250fe8c6e2598559
UVM_INFO ../tb/apb_driver.sv(44) @ 165: uvm_test_top.env.apb_agnt.driver [apb_driver] Driving Transaction: addr=c190 write=0 wdata = 0
UVM_INFO ../tb/apb_wr_rd_seq.sv(33) @ 165: uvm_test_top.env.apb_agnt.sequencer@@seq [wr_rd_seq] WR→RD addr=0x0000c190 exp=0x250fe8c6e2598559 got=0x250fe8c6e2598559
UVM_INFO ../tb/apb_monitor.sv(65) @ 225: uvm_test_top.env.apb_agnt.monitor [apb_monitor] [MON] WR  addr=0x0000e920 data=0xc57a6ffaafbe95b0 strb=0xff rdata=0x0000000000000000 err=0
UVM_INFO ../tb/apb_coverage.sv(98) @ 225: uvm_test_top.env.apb_cov [apb_coverage] WRITE CALLED
UVM_INFO ../tb/apb_scoreboard.sv(81) @ 225: uvm_test_top.env.apb_scb [apb_scoreboard] [SCB] WR OK  addr=0x0000e920 wdata=0xc57a6ffaafbe95b0 strb=0xff
UVM_INFO ../tb/apb_driver.sv(44) @ 235: uvm_test_top.env.apb_agnt.driver [apb_driver] Driving Transaction: addr=e920 write=1 wdata = c57a6ffaafbe95b0
UVM_INFO ../tb/apb_monitor.sv(65) @ 295: uvm_test_top.env.apb_agnt.monitor [apb_monitor] [MON] RD  addr=0x0000e920 data=0xc57a6ffaafbe95b0 strb=0x00 rdata=0xc57a6ffaafbe95b0 err=0
UVM_INFO ../tb/apb_coverage.sv(98) @ 295: uvm_test_top.env.apb_cov [apb_coverage] WRITE CALLED
UVM_INFO ../tb/apb_scoreboard.sv(90) @ 295: uvm_test_top.env.apb_scb [apb_scoreboard] [SCB] RD OK  addr=0x0000e920 exp=0xc57a6ffaafbe95b0 got=0xc57a6ffaafbe95b0
UVM_INFO ../tb/apb_driver.sv(44) @ 305: uvm_test_top.env.apb_agnt.driver [apb_driver] Driving Transaction: addr=e920 write=0 wdata = 0
UVM_INFO ../tb/apb_wr_rd_seq.sv(33) @ 305: uvm_test_top.env.apb_agnt.sequencer@@seq [wr_rd_seq] WR→RD addr=0x0000e920 exp=0xc57a6ffaafbe95b0 got=0xc57a6ffaafbe95b0
UVM_INFO ../tb/apb_monitor.sv(65) @ 365: uvm_test_top.env.apb_agnt.monitor [apb_monitor] [MON] WR  addr=0x00002ae0 data=0x9b246051e51a440e strb=0xff rdata=0x0000000000000000 err=0
UVM_INFO ../tb/apb_coverage.sv(98) @ 365: uvm_test_top.env.apb_cov [apb_coverage] WRITE CALLED
UVM_INFO ../tb/apb_scoreboard.sv(81) @ 365: uvm_test_top.env.apb_scb [apb_scoreboard] [SCB] WR OK  addr=0x00002ae0 wdata=0x9b246051e51a440e strb=0xff
UVM_INFO ../tb/apb_driver.sv(44) @ 375: uvm_test_top.env.apb_agnt.driver [apb_driver] Driving Transaction: addr=2ae0 write=1 wdata = 9b246051e51a440e
UVM_INFO ../tb/apb_monitor.sv(65) @ 435: uvm_test_top.env.apb_agnt.monitor [apb_monitor] [MON] RD  addr=0x00002ae0 data=0x9b246051e51a440e strb=0x00 rdata=0x9b246051e51a440e err=0
UVM_INFO ../tb/apb_coverage.sv(98) @ 435: uvm_test_top.env.apb_cov [apb_coverage] WRITE CALLED
UVM_INFO ../tb/apb_scoreboard.sv(90) @ 435: uvm_test_top.env.apb_scb [apb_scoreboard] [SCB] RD OK  addr=0x00002ae0 exp=0x9b246051e51a440e got=0x9b246051e51a440e
UVM_INFO ../tb/apb_driver.sv(44) @ 445: uvm_test_top.env.apb_agnt.driver [apb_driver] Driving Transaction: addr=2ae0 write=0 wdata = 0
UVM_INFO ../tb/apb_wr_rd_seq.sv(33) @ 445: uvm_test_top.env.apb_agnt.sequencer@@seq [wr_rd_seq] WR→RD addr=0x00002ae0 exp=0x9b246051e51a440e got=0x9b246051e51a440e
UVM_INFO ../tb/apb_monitor.sv(65) @ 505: uvm_test_top.env.apb_agnt.monitor [apb_monitor] [MON] WR  addr=0x000050c0 data=0x1385c437f198d24b strb=0xff rdata=0x0000000000000000 err=0
UVM_INFO ../tb/apb_coverage.sv(98) @ 505: uvm_test_top.env.apb_cov [apb_coverage] WRITE CALLED
UVM_INFO ../tb/apb_scoreboard.sv(81) @ 505: uvm_test_top.env.apb_scb [apb_scoreboard] [SCB] WR OK  addr=0x000050c0 wdata=0x1385c437f198d24b strb=0xff
UVM_INFO ../tb/apb_driver.sv(44) @ 515: uvm_test_top.env.apb_agnt.driver [apb_driver] Driving Transaction: addr=50c0 write=1 wdata = 1385c437f198d24b
UVM_INFO ../tb/apb_monitor.sv(65) @ 575: uvm_test_top.env.apb_agnt.monitor [apb_monitor] [MON] RD  addr=0x000050c0 data=0x1385c437f198d24b strb=0x00 rdata=0x1385c437f198d24b err=0
UVM_INFO ../tb/apb_coverage.sv(98) @ 575: uvm_test_top.env.apb_cov [apb_coverage] WRITE CALLED
UVM_INFO ../tb/apb_scoreboard.sv(90) @ 575: uvm_test_top.env.apb_scb [apb_scoreboard] [SCB] RD OK  addr=0x000050c0 exp=0x1385c437f198d24b got=0x1385c437f198d24b
UVM_INFO ../tb/apb_driver.sv(44) @ 585: uvm_test_top.env.apb_agnt.driver [apb_driver] Driving Transaction: addr=50c0 write=0 wdata = 0
UVM_INFO ../tb/apb_wr_rd_seq.sv(33) @ 585: uvm_test_top.env.apb_agnt.sequencer@@seq [wr_rd_seq] WR→RD addr=0x000050c0 exp=0x1385c437f198d24b got=0x1385c437f198d24b
UVM_INFO ../tb/apb_monitor.sv(65) @ 645: uvm_test_top.env.apb_agnt.monitor [apb_monitor] [MON] WR  addr=0x000061b8 data=0xc4aff59bcef884c6 strb=0xff rdata=0x0000000000000000 err=0
UVM_INFO ../tb/apb_coverage.sv(98) @ 645: uvm_test_top.env.apb_cov [apb_coverage] WRITE CALLED
UVM_INFO ../tb/apb_scoreboard.sv(81) @ 645: uvm_test_top.env.apb_scb [apb_scoreboard] [SCB] WR OK  addr=0x000061b8 wdata=0xc4aff59bcef884c6 strb=0xff
UVM_INFO ../tb/apb_driver.sv(44) @ 655: uvm_test_top.env.apb_agnt.driver [apb_driver] Driving Transaction: addr=61b8 write=1 wdata = c4aff59bcef884c6
UVM_INFO ../tb/apb_monitor.sv(65) @ 715: uvm_test_top.env.apb_agnt.monitor [apb_monitor] [MON] RD  addr=0x000061b8 data=0xc4aff59bcef884c6 strb=0x00 rdata=0xc4aff59bcef884c6 err=0
UVM_INFO ../tb/apb_coverage.sv(98) @ 715: uvm_test_top.env.apb_cov [apb_coverage] WRITE CALLED
UVM_INFO ../tb/apb_scoreboard.sv(90) @ 715: uvm_test_top.env.apb_scb [apb_scoreboard] [SCB] RD OK  addr=0x000061b8 exp=0xc4aff59bcef884c6 got=0xc4aff59bcef884c6
UVM_INFO ../tb/apb_driver.sv(44) @ 725: uvm_test_top.env.apb_agnt.driver [apb_driver] Driving Transaction: addr=61b8 write=0 wdata = 0
UVM_INFO ../tb/apb_wr_rd_seq.sv(33) @ 725: uvm_test_top.env.apb_agnt.sequencer@@seq [wr_rd_seq] WR→RD addr=0x000061b8 exp=0xc4aff59bcef884c6 got=0xc4aff59bcef884c6
UVM_INFO ../tb/apb_monitor.sv(65) @ 785: uvm_test_top.env.apb_agnt.monitor [apb_monitor] [MON] WR  addr=0x00002a08 data=0xcbc5093c0257c298 strb=0xff rdata=0x0000000000000000 err=0
UVM_INFO ../tb/apb_coverage.sv(98) @ 785: uvm_test_top.env.apb_cov [apb_coverage] WRITE CALLED
UVM_INFO ../tb/apb_scoreboard.sv(81) @ 785: uvm_test_top.env.apb_scb [apb_scoreboard] [SCB] WR OK  addr=0x00002a08 wdata=0xcbc5093c0257c298 strb=0xff
UVM_INFO ../tb/apb_driver.sv(44) @ 795: uvm_test_top.env.apb_agnt.driver [apb_driver] Driving Transaction: addr=2a08 write=1 wdata = cbc5093c0257c298
UVM_INFO ../tb/apb_monitor.sv(65) @ 855: uvm_test_top.env.apb_agnt.monitor [apb_monitor] [MON] RD  addr=0x00002a08 data=0xcbc5093c0257c298 strb=0x00 rdata=0xcbc5093c0257c298 err=0
UVM_INFO ../tb/apb_coverage.sv(98) @ 855: uvm_test_top.env.apb_cov [apb_coverage] WRITE CALLED
UVM_INFO ../tb/apb_scoreboard.sv(90) @ 855: uvm_test_top.env.apb_scb [apb_scoreboard] [SCB] RD OK  addr=0x00002a08 exp=0xcbc5093c0257c298 got=0xcbc5093c0257c298
UVM_INFO ../tb/apb_driver.sv(44) @ 865: uvm_test_top.env.apb_agnt.driver [apb_driver] Driving Transaction: addr=2a08 write=0 wdata = 0
UVM_INFO ../tb/apb_wr_rd_seq.sv(33) @ 865: uvm_test_top.env.apb_agnt.sequencer@@seq [wr_rd_seq] WR→RD addr=0x00002a08 exp=0xcbc5093c0257c298 got=0xcbc5093c0257c298
UVM_INFO ../tb/apb_monitor.sv(65) @ 925: uvm_test_top.env.apb_agnt.monitor [apb_monitor] [MON] WR  addr=0x00005cf0 data=0xc34b6dcdded2bc7d strb=0xff rdata=0x0000000000000000 err=0
UVM_INFO ../tb/apb_coverage.sv(98) @ 925: uvm_test_top.env.apb_cov [apb_coverage] WRITE CALLED
UVM_INFO ../tb/apb_scoreboard.sv(81) @ 925: uvm_test_top.env.apb_scb [apb_scoreboard] [SCB] WR OK  addr=0x00005cf0 wdata=0xc34b6dcdded2bc7d strb=0xff
UVM_INFO ../tb/apb_driver.sv(44) @ 935: uvm_test_top.env.apb_agnt.driver [apb_driver] Driving Transaction: addr=5cf0 write=1 wdata = c34b6dcdded2bc7d
UVM_INFO ../tb/apb_monitor.sv(65) @ 995: uvm_test_top.env.apb_agnt.monitor [apb_monitor] [MON] RD  addr=0x00005cf0 data=0xc34b6dcdded2bc7d strb=0x00 rdata=0xc34b6dcdded2bc7d err=0
UVM_INFO ../tb/apb_coverage.sv(98) @ 995: uvm_test_top.env.apb_cov [apb_coverage] WRITE CALLED
UVM_INFO ../tb/apb_scoreboard.sv(90) @ 995: uvm_test_top.env.apb_scb [apb_scoreboard] [SCB] RD OK  addr=0x00005cf0 exp=0xc34b6dcdded2bc7d got=0xc34b6dcdded2bc7d
UVM_INFO ../tb/apb_driver.sv(44) @ 1005: uvm_test_top.env.apb_agnt.driver [apb_driver] Driving Transaction: addr=5cf0 write=0 wdata = 0
UVM_INFO ../tb/apb_wr_rd_seq.sv(33) @ 1005: uvm_test_top.env.apb_agnt.sequencer@@seq [wr_rd_seq] WR→RD addr=0x00005cf0 exp=0xc34b6dcdded2bc7d got=0xc34b6dcdded2bc7d
UVM_INFO ../tb/apb_monitor.sv(65) @ 1065: uvm_test_top.env.apb_agnt.monitor [apb_monitor] [MON] WR  addr=0x0000b4e0 data=0xa4d2e7e8a27a2bd9 strb=0xff rdata=0x0000000000000000 err=0
UVM_INFO ../tb/apb_coverage.sv(98) @ 1065: uvm_test_top.env.apb_cov [apb_coverage] WRITE CALLED
UVM_INFO ../tb/apb_scoreboard.sv(81) @ 1065: uvm_test_top.env.apb_scb [apb_scoreboard] [SCB] WR OK  addr=0x0000b4e0 wdata=0xa4d2e7e8a27a2bd9 strb=0xff
UVM_INFO ../tb/apb_driver.sv(44) @ 1075: uvm_test_top.env.apb_agnt.driver [apb_driver] Driving Transaction: addr=b4e0 write=1 wdata = a4d2e7e8a27a2bd9
UVM_INFO ../tb/apb_monitor.sv(65) @ 1135: uvm_test_top.env.apb_agnt.monitor [apb_monitor] [MON] RD  addr=0x0000b4e0 data=0xa4d2e7e8a27a2bd9 strb=0x00 rdata=0xa4d2e7e8a27a2bd9 err=0
UVM_INFO ../tb/apb_coverage.sv(98) @ 1135: uvm_test_top.env.apb_cov [apb_coverage] WRITE CALLED
UVM_INFO ../tb/apb_scoreboard.sv(90) @ 1135: uvm_test_top.env.apb_scb [apb_scoreboard] [SCB] RD OK  addr=0x0000b4e0 exp=0xa4d2e7e8a27a2bd9 got=0xa4d2e7e8a27a2bd9
UVM_INFO ../tb/apb_driver.sv(44) @ 1145: uvm_test_top.env.apb_agnt.driver [apb_driver] Driving Transaction: addr=b4e0 write=0 wdata = 0
UVM_INFO ../tb/apb_wr_rd_seq.sv(33) @ 1145: uvm_test_top.env.apb_agnt.sequencer@@seq [wr_rd_seq] WR→RD addr=0x0000b4e0 exp=0xa4d2e7e8a27a2bd9 got=0xa4d2e7e8a27a2bd9
UVM_INFO ../tb/apb_monitor.sv(65) @ 1205: uvm_test_top.env.apb_agnt.monitor [apb_monitor] [MON] WR  addr=0x000018c8 data=0x3dc3cf9cf7522cdd strb=0xff rdata=0x0000000000000000 err=0
UVM_INFO ../tb/apb_coverage.sv(98) @ 1205: uvm_test_top.env.apb_cov [apb_coverage] WRITE CALLED
UVM_INFO ../tb/apb_scoreboard.sv(81) @ 1205: uvm_test_top.env.apb_scb [apb_scoreboard] [SCB] WR OK  addr=0x000018c8 wdata=0x3dc3cf9cf7522cdd strb=0xff
UVM_INFO ../tb/apb_driver.sv(44) @ 1215: uvm_test_top.env.apb_agnt.driver [apb_driver] Driving Transaction: addr=18c8 write=1 wdata = 3dc3cf9cf7522cdd
UVM_INFO ../tb/apb_monitor.sv(65) @ 1275: uvm_test_top.env.apb_agnt.monitor [apb_monitor] [MON] RD  addr=0x000018c8 data=0x3dc3cf9cf7522cdd strb=0x00 rdata=0x3dc3cf9cf7522cdd err=0
UVM_INFO ../tb/apb_coverage.sv(98) @ 1275: uvm_test_top.env.apb_cov [apb_coverage] WRITE CALLED
UVM_INFO ../tb/apb_scoreboard.sv(90) @ 1275: uvm_test_top.env.apb_scb [apb_scoreboard] [SCB] RD OK  addr=0x000018c8 exp=0x3dc3cf9cf7522cdd got=0x3dc3cf9cf7522cdd
UVM_INFO ../tb/apb_driver.sv(44) @ 1285: uvm_test_top.env.apb_agnt.driver [apb_driver] Driving Transaction: addr=18c8 write=0 wdata = 0
UVM_INFO ../tb/apb_wr_rd_seq.sv(33) @ 1285: uvm_test_top.env.apb_agnt.sequencer@@seq [wr_rd_seq] WR→RD addr=0x000018c8 exp=0x3dc3cf9cf7522cdd got=0x3dc3cf9cf7522cdd
UVM_INFO ../tb/apb_monitor.sv(65) @ 1345: uvm_test_top.env.apb_agnt.monitor [apb_monitor] [MON] WR  addr=0x00000680 data=0xb17a9097419e0fce strb=0xff rdata=0x0000000000000000 err=0
UVM_INFO ../tb/apb_coverage.sv(98) @ 1345: uvm_test_top.env.apb_cov [apb_coverage] WRITE CALLED
UVM_INFO ../tb/apb_scoreboard.sv(81) @ 1345: uvm_test_top.env.apb_scb [apb_scoreboard] [SCB] WR OK  addr=0x00000680 wdata=0xb17a9097419e0fce strb=0xff
UVM_INFO ../tb/apb_driver.sv(44) @ 1355: uvm_test_top.env.apb_agnt.driver [apb_driver] Driving Transaction: addr=680 write=1 wdata = b17a9097419e0fce
UVM_INFO ../tb/apb_monitor.sv(65) @ 1415: uvm_test_top.env.apb_agnt.monitor [apb_monitor] [MON] RD  addr=0x00000680 data=0xb17a9097419e0fce strb=0x00 rdata=0xb17a9097419e0fce err=0
UVM_INFO ../tb/apb_coverage.sv(98) @ 1415: uvm_test_top.env.apb_cov [apb_coverage] WRITE CALLED
UVM_INFO ../tb/apb_scoreboard.sv(90) @ 1415: uvm_test_top.env.apb_scb [apb_scoreboard] [SCB] RD OK  addr=0x00000680 exp=0xb17a9097419e0fce got=0xb17a9097419e0fce
UVM_INFO ../tb/apb_driver.sv(44) @ 1425: uvm_test_top.env.apb_agnt.driver [apb_driver] Driving Transaction: addr=680 write=0 wdata = 0
UVM_INFO ../tb/apb_wr_rd_seq.sv(33) @ 1425: uvm_test_top.env.apb_agnt.sequencer@@seq [wr_rd_seq] WR→RD addr=0x00000680 exp=0xb17a9097419e0fce got=0xb17a9097419e0fce
UVM_INFO ../tb/apb_monitor.sv(65) @ 1485: uvm_test_top.env.apb_agnt.monitor [apb_monitor] [MON] WR  addr=0x00006468 data=0x49da8b2df49b0f03 strb=0xff rdata=0x0000000000000000 err=0
UVM_INFO ../tb/apb_coverage.sv(98) @ 1485: uvm_test_top.env.apb_cov [apb_coverage] WRITE CALLED
UVM_INFO ../tb/apb_scoreboard.sv(81) @ 1485: uvm_test_top.env.apb_scb [apb_scoreboard] [SCB] WR OK  addr=0x00006468 wdata=0x49da8b2df49b0f03 strb=0xff
UVM_INFO ../tb/apb_driver.sv(44) @ 1495: uvm_test_top.env.apb_agnt.driver [apb_driver] Driving Transaction: addr=6468 write=1 wdata = 49da8b2df49b0f03
UVM_INFO ../tb/apb_monitor.sv(65) @ 1555: uvm_test_top.env.apb_agnt.monitor [apb_monitor] [MON] RD  addr=0x00006468 data=0x49da8b2df49b0f03 strb=0x00 rdata=0x49da8b2df49b0f03 err=0
UVM_INFO ../tb/apb_coverage.sv(98) @ 1555: uvm_test_top.env.apb_cov [apb_coverage] WRITE CALLED
UVM_INFO ../tb/apb_scoreboard.sv(90) @ 1555: uvm_test_top.env.apb_scb [apb_scoreboard] [SCB] RD OK  addr=0x00006468 exp=0x49da8b2df49b0f03 got=0x49da8b2df49b0f03
UVM_INFO ../tb/apb_driver.sv(44) @ 1565: uvm_test_top.env.apb_agnt.driver [apb_driver] Driving Transaction: addr=6468 write=0 wdata = 0
UVM_INFO ../tb/apb_wr_rd_seq.sv(33) @ 1565: uvm_test_top.env.apb_agnt.sequencer@@seq [wr_rd_seq] WR→RD addr=0x00006468 exp=0x49da8b2df49b0f03 got=0x49da8b2df49b0f03
UVM_INFO ../tb/apb_monitor.sv(65) @ 1625: uvm_test_top.env.apb_agnt.monitor [apb_monitor] [MON] WR  addr=0x00007ac8 data=0x35bf2f6dfa3248f9 strb=0xff rdata=0x0000000000000000 err=0
UVM_INFO ../tb/apb_coverage.sv(98) @ 1625: uvm_test_top.env.apb_cov [apb_coverage] WRITE CALLED
UVM_INFO ../tb/apb_scoreboard.sv(81) @ 1625: uvm_test_top.env.apb_scb [apb_scoreboard] [SCB] WR OK  addr=0x00007ac8 wdata=0x35bf2f6dfa3248f9 strb=0xff
UVM_INFO ../tb/apb_driver.sv(44) @ 1635: uvm_test_top.env.apb_agnt.driver [apb_driver] Driving Transaction: addr=7ac8 write=1 wdata = 35bf2f6dfa3248f9
UVM_INFO ../tb/apb_monitor.sv(65) @ 1695: uvm_test_top.env.apb_agnt.monitor [apb_monitor] [MON] RD  addr=0x00007ac8 data=0x35bf2f6dfa3248f9 strb=0x00 rdata=0x35bf2f6dfa3248f9 err=0
UVM_INFO ../tb/apb_coverage.sv(98) @ 1695: uvm_test_top.env.apb_cov [apb_coverage] WRITE CALLED
UVM_INFO ../tb/apb_scoreboard.sv(90) @ 1695: uvm_test_top.env.apb_scb [apb_scoreboard] [SCB] RD OK  addr=0x00007ac8 exp=0x35bf2f6dfa3248f9 got=0x35bf2f6dfa3248f9
UVM_INFO ../tb/apb_driver.sv(44) @ 1705: uvm_test_top.env.apb_agnt.driver [apb_driver] Driving Transaction: addr=7ac8 write=0 wdata = 0
UVM_INFO ../tb/apb_wr_rd_seq.sv(33) @ 1705: uvm_test_top.env.apb_agnt.sequencer@@seq [wr_rd_seq] WR→RD addr=0x00007ac8 exp=0x35bf2f6dfa3248f9 got=0x35bf2f6dfa3248f9
UVM_INFO ../tb/apb_monitor.sv(65) @ 1765: uvm_test_top.env.apb_agnt.monitor [apb_monitor] [MON] WR  addr=0x0000a830 data=0x2b3e1258312c3004 strb=0xff rdata=0x0000000000000000 err=0
UVM_INFO ../tb/apb_coverage.sv(98) @ 1765: uvm_test_top.env.apb_cov [apb_coverage] WRITE CALLED
UVM_INFO ../tb/apb_scoreboard.sv(81) @ 1765: uvm_test_top.env.apb_scb [apb_scoreboard] [SCB] WR OK  addr=0x0000a830 wdata=0x2b3e1258312c3004 strb=0xff
UVM_INFO ../tb/apb_driver.sv(44) @ 1775: uvm_test_top.env.apb_agnt.driver [apb_driver] Driving Transaction: addr=a830 write=1 wdata = 2b3e1258312c3004
UVM_INFO ../tb/apb_monitor.sv(65) @ 1835: uvm_test_top.env.apb_agnt.monitor [apb_monitor] [MON] RD  addr=0x0000a830 data=0x2b3e1258312c3004 strb=0x00 rdata=0x2b3e1258312c3004 err=0
UVM_INFO ../tb/apb_coverage.sv(98) @ 1835: uvm_test_top.env.apb_cov [apb_coverage] WRITE CALLED
UVM_INFO ../tb/apb_scoreboard.sv(90) @ 1835: uvm_test_top.env.apb_scb [apb_scoreboard] [SCB] RD OK  addr=0x0000a830 exp=0x2b3e1258312c3004 got=0x2b3e1258312c3004
UVM_INFO ../tb/apb_driver.sv(44) @ 1845: uvm_test_top.env.apb_agnt.driver [apb_driver] Driving Transaction: addr=a830 write=0 wdata = 0
UVM_INFO ../tb/apb_wr_rd_seq.sv(33) @ 1845: uvm_test_top.env.apb_agnt.sequencer@@seq [wr_rd_seq] WR→RD addr=0x0000a830 exp=0x2b3e1258312c3004 got=0x2b3e1258312c3004
UVM_INFO ../tb/apb_monitor.sv(65) @ 1905: uvm_test_top.env.apb_agnt.monitor [apb_monitor] [MON] WR  addr=0x0000fcc8 data=0xaf1a1ee5e3becf18 strb=0xff rdata=0x0000000000000000 err=0
UVM_INFO ../tb/apb_coverage.sv(98) @ 1905: uvm_test_top.env.apb_cov [apb_coverage] WRITE CALLED
UVM_INFO ../tb/apb_scoreboard.sv(81) @ 1905: uvm_test_top.env.apb_scb [apb_scoreboard] [SCB] WR OK  addr=0x0000fcc8 wdata=0xaf1a1ee5e3becf18 strb=0xff
UVM_INFO ../tb/apb_driver.sv(44) @ 1915: uvm_test_top.env.apb_agnt.driver [apb_driver] Driving Transaction: addr=fcc8 write=1 wdata = af1a1ee5e3becf18
UVM_INFO ../tb/apb_monitor.sv(65) @ 1975: uvm_test_top.env.apb_agnt.monitor [apb_monitor] [MON] RD  addr=0x0000fcc8 data=0xaf1a1ee5e3becf18 strb=0x00 rdata=0xaf1a1ee5e3becf18 err=0
UVM_INFO ../tb/apb_coverage.sv(98) @ 1975: uvm_test_top.env.apb_cov [apb_coverage] WRITE CALLED
UVM_INFO ../tb/apb_scoreboard.sv(90) @ 1975: uvm_test_top.env.apb_scb [apb_scoreboard] [SCB] RD OK  addr=0x0000fcc8 exp=0xaf1a1ee5e3becf18 got=0xaf1a1ee5e3becf18
UVM_INFO ../tb/apb_driver.sv(44) @ 1985: uvm_test_top.env.apb_agnt.driver [apb_driver] Driving Transaction: addr=fcc8 write=0 wdata = 0
UVM_INFO ../tb/apb_wr_rd_seq.sv(33) @ 1985: uvm_test_top.env.apb_agnt.sequencer@@seq [wr_rd_seq] WR→RD addr=0x0000fcc8 exp=0xaf1a1ee5e3becf18 got=0xaf1a1ee5e3becf18
UVM_INFO ../tb/apb_monitor.sv(65) @ 2045: uvm_test_top.env.apb_agnt.monitor [apb_monitor] [MON] WR  addr=0x00009f70 data=0xc1edaedd7c9ba92a strb=0xff rdata=0x0000000000000000 err=0
UVM_INFO ../tb/apb_coverage.sv(98) @ 2045: uvm_test_top.env.apb_cov [apb_coverage] WRITE CALLED
UVM_INFO ../tb/apb_scoreboard.sv(81) @ 2045: uvm_test_top.env.apb_scb [apb_scoreboard] [SCB] WR OK  addr=0x00009f70 wdata=0xc1edaedd7c9ba92a strb=0xff
UVM_INFO ../tb/apb_driver.sv(44) @ 2055: uvm_test_top.env.apb_agnt.driver [apb_driver] Driving Transaction: addr=9f70 write=1 wdata = c1edaedd7c9ba92a
UVM_INFO ../tb/apb_monitor.sv(65) @ 2115: uvm_test_top.env.apb_agnt.monitor [apb_monitor] [MON] RD  addr=0x00009f70 data=0xc1edaedd7c9ba92a strb=0x00 rdata=0xc1edaedd7c9ba92a err=0
UVM_INFO ../tb/apb_coverage.sv(98) @ 2115: uvm_test_top.env.apb_cov [apb_coverage] WRITE CALLED
UVM_INFO ../tb/apb_scoreboard.sv(90) @ 2115: uvm_test_top.env.apb_scb [apb_scoreboard] [SCB] RD OK  addr=0x00009f70 exp=0xc1edaedd7c9ba92a got=0xc1edaedd7c9ba92a
UVM_INFO ../tb/apb_driver.sv(44) @ 2125: uvm_test_top.env.apb_agnt.driver [apb_driver] Driving Transaction: addr=9f70 write=0 wdata = 0
UVM_INFO ../tb/apb_wr_rd_seq.sv(33) @ 2125: uvm_test_top.env.apb_agnt.sequencer@@seq [wr_rd_seq] WR→RD addr=0x00009f70 exp=0xc1edaedd7c9ba92a got=0xc1edaedd7c9ba92a
UVM_INFO ../tb/apb_monitor.sv(65) @ 2185: uvm_test_top.env.apb_agnt.monitor [apb_monitor] [MON] WR  addr=0x0000f748 data=0x79284a7ec28a27e6 strb=0xff rdata=0x0000000000000000 err=0
UVM_INFO ../tb/apb_coverage.sv(98) @ 2185: uvm_test_top.env.apb_cov [apb_coverage] WRITE CALLED
UVM_INFO ../tb/apb_scoreboard.sv(81) @ 2185: uvm_test_top.env.apb_scb [apb_scoreboard] [SCB] WR OK  addr=0x0000f748 wdata=0x79284a7ec28a27e6 strb=0xff
UVM_INFO ../tb/apb_driver.sv(44) @ 2195: uvm_test_top.env.apb_agnt.driver [apb_driver] Driving Transaction: addr=f748 write=1 wdata = 79284a7ec28a27e6
UVM_INFO ../tb/apb_monitor.sv(65) @ 2255: uvm_test_top.env.apb_agnt.monitor [apb_monitor] [MON] RD  addr=0x0000f748 data=0x79284a7ec28a27e6 strb=0x00 rdata=0x79284a7ec28a27e6 err=0
UVM_INFO ../tb/apb_coverage.sv(98) @ 2255: uvm_test_top.env.apb_cov [apb_coverage] WRITE CALLED
UVM_INFO ../tb/apb_scoreboard.sv(90) @ 2255: uvm_test_top.env.apb_scb [apb_scoreboard] [SCB] RD OK  addr=0x0000f748 exp=0x79284a7ec28a27e6 got=0x79284a7ec28a27e6
UVM_INFO ../tb/apb_driver.sv(44) @ 2265: uvm_test_top.env.apb_agnt.driver [apb_driver] Driving Transaction: addr=f748 write=0 wdata = 0
UVM_INFO ../tb/apb_wr_rd_seq.sv(33) @ 2265: uvm_test_top.env.apb_agnt.sequencer@@seq [wr_rd_seq] WR→RD addr=0x0000f748 exp=0x79284a7ec28a27e6 got=0x79284a7ec28a27e6
UVM_INFO ../tb/apb_monitor.sv(65) @ 2325: uvm_test_top.env.apb_agnt.monitor [apb_monitor] [MON] WR  addr=0x0000f268 data=0x4d9b584ac01071d2 strb=0xff rdata=0x0000000000000000 err=0
UVM_INFO ../tb/apb_coverage.sv(98) @ 2325: uvm_test_top.env.apb_cov [apb_coverage] WRITE CALLED
UVM_INFO ../tb/apb_scoreboard.sv(81) @ 2325: uvm_test_top.env.apb_scb [apb_scoreboard] [SCB] WR OK  addr=0x0000f268 wdata=0x4d9b584ac01071d2 strb=0xff
UVM_INFO ../tb/apb_driver.sv(44) @ 2335: uvm_test_top.env.apb_agnt.driver [apb_driver] Driving Transaction: addr=f268 write=1 wdata = 4d9b584ac01071d2
UVM_INFO ../tb/apb_monitor.sv(65) @ 2395: uvm_test_top.env.apb_agnt.monitor [apb_monitor] [MON] RD  addr=0x0000f268 data=0x4d9b584ac01071d2 strb=0x00 rdata=0x4d9b584ac01071d2 err=0
UVM_INFO ../tb/apb_coverage.sv(98) @ 2395: uvm_test_top.env.apb_cov [apb_coverage] WRITE CALLED
UVM_INFO ../tb/apb_scoreboard.sv(90) @ 2395: uvm_test_top.env.apb_scb [apb_scoreboard] [SCB] RD OK  addr=0x0000f268 exp=0x4d9b584ac01071d2 got=0x4d9b584ac01071d2
UVM_INFO ../tb/apb_driver.sv(44) @ 2405: uvm_test_top.env.apb_agnt.driver [apb_driver] Driving Transaction: addr=f268 write=0 wdata = 0
UVM_INFO ../tb/apb_wr_rd_seq.sv(33) @ 2405: uvm_test_top.env.apb_agnt.sequencer@@seq [wr_rd_seq] WR→RD addr=0x0000f268 exp=0x4d9b584ac01071d2 got=0x4d9b584ac01071d2
UVM_INFO ../tb/apb_monitor.sv(65) @ 2465: uvm_test_top.env.apb_agnt.monitor [apb_monitor] [MON] WR  addr=0x0000edd8 data=0xcfe7edbf9a7fcebc strb=0xff rdata=0x0000000000000000 err=0
UVM_INFO ../tb/apb_coverage.sv(98) @ 2465: uvm_test_top.env.apb_cov [apb_coverage] WRITE CALLED
UVM_INFO ../tb/apb_scoreboard.sv(81) @ 2465: uvm_test_top.env.apb_scb [apb_scoreboard] [SCB] WR OK  addr=0x0000edd8 wdata=0xcfe7edbf9a7fcebc strb=0xff
UVM_INFO ../tb/apb_driver.sv(44) @ 2475: uvm_test_top.env.apb_agnt.driver [apb_driver] Driving Transaction: addr=edd8 write=1 wdata = cfe7edbf9a7fcebc
UVM_INFO ../tb/apb_monitor.sv(65) @ 2535: uvm_test_top.env.apb_agnt.monitor [apb_monitor] [MON] RD  addr=0x0000edd8 data=0xcfe7edbf9a7fcebc strb=0x00 rdata=0xcfe7edbf9a7fcebc err=0
UVM_INFO ../tb/apb_coverage.sv(98) @ 2535: uvm_test_top.env.apb_cov [apb_coverage] WRITE CALLED
UVM_INFO ../tb/apb_scoreboard.sv(90) @ 2535: uvm_test_top.env.apb_scb [apb_scoreboard] [SCB] RD OK  addr=0x0000edd8 exp=0xcfe7edbf9a7fcebc got=0xcfe7edbf9a7fcebc
UVM_INFO ../tb/apb_driver.sv(44) @ 2545: uvm_test_top.env.apb_agnt.driver [apb_driver] Driving Transaction: addr=edd8 write=0 wdata = 0
UVM_INFO ../tb/apb_wr_rd_seq.sv(33) @ 2545: uvm_test_top.env.apb_agnt.sequencer@@seq [wr_rd_seq] WR→RD addr=0x0000edd8 exp=0xcfe7edbf9a7fcebc got=0xcfe7edbf9a7fcebc
UVM_INFO ../tb/apb_monitor.sv(65) @ 2605: uvm_test_top.env.apb_agnt.monitor [apb_monitor] [MON] WR  addr=0x0000b448 data=0x61ea4f7c03c1b017 strb=0xff rdata=0x0000000000000000 err=0
UVM_INFO ../tb/apb_coverage.sv(98) @ 2605: uvm_test_top.env.apb_cov [apb_coverage] WRITE CALLED
UVM_INFO ../tb/apb_scoreboard.sv(81) @ 2605: uvm_test_top.env.apb_scb [apb_scoreboard] [SCB] WR OK  addr=0x0000b448 wdata=0x61ea4f7c03c1b017 strb=0xff
UVM_INFO ../tb/apb_driver.sv(44) @ 2615: uvm_test_top.env.apb_agnt.driver [apb_driver] Driving Transaction: addr=b448 write=1 wdata = 61ea4f7c03c1b017
UVM_INFO ../tb/apb_monitor.sv(65) @ 2675: uvm_test_top.env.apb_agnt.monitor [apb_monitor] [MON] RD  addr=0x0000b448 data=0x61ea4f7c03c1b017 strb=0x00 rdata=0x61ea4f7c03c1b017 err=0
UVM_INFO ../tb/apb_coverage.sv(98) @ 2675: uvm_test_top.env.apb_cov [apb_coverage] WRITE CALLED
UVM_INFO ../tb/apb_scoreboard.sv(90) @ 2675: uvm_test_top.env.apb_scb [apb_scoreboard] [SCB] RD OK  addr=0x0000b448 exp=0x61ea4f7c03c1b017 got=0x61ea4f7c03c1b017
UVM_INFO ../tb/apb_driver.sv(44) @ 2685: uvm_test_top.env.apb_agnt.driver [apb_driver] Driving Transaction: addr=b448 write=0 wdata = 0
UVM_INFO ../tb/apb_wr_rd_seq.sv(33) @ 2685: uvm_test_top.env.apb_agnt.sequencer@@seq [wr_rd_seq] WR→RD addr=0x0000b448 exp=0x61ea4f7c03c1b017 got=0x61ea4f7c03c1b017
UVM_INFO ../tb/apb_monitor.sv(65) @ 2745: uvm_test_top.env.apb_agnt.monitor [apb_monitor] [MON] WR  addr=0x0000c4a8 data=0xaf6a464b86ac925d strb=0xff rdata=0x0000000000000000 err=0
UVM_INFO ../tb/apb_coverage.sv(98) @ 2745: uvm_test_top.env.apb_cov [apb_coverage] WRITE CALLED
UVM_INFO ../tb/apb_scoreboard.sv(81) @ 2745: uvm_test_top.env.apb_scb [apb_scoreboard] [SCB] WR OK  addr=0x0000c4a8 wdata=0xaf6a464b86ac925d strb=0xff
UVM_INFO ../tb/apb_driver.sv(44) @ 2755: uvm_test_top.env.apb_agnt.driver [apb_driver] Driving Transaction: addr=c4a8 write=1 wdata = af6a464b86ac925d
UVM_INFO ../tb/apb_monitor.sv(65) @ 2815: uvm_test_top.env.apb_agnt.monitor [apb_monitor] [MON] RD  addr=0x0000c4a8 data=0xaf6a464b86ac925d strb=0x00 rdata=0xaf6a464b86ac925d err=0
UVM_INFO ../tb/apb_coverage.sv(98) @ 2815: uvm_test_top.env.apb_cov [apb_coverage] WRITE CALLED
UVM_INFO ../tb/apb_scoreboard.sv(90) @ 2815: uvm_test_top.env.apb_scb [apb_scoreboard] [SCB] RD OK  addr=0x0000c4a8 exp=0xaf6a464b86ac925d got=0xaf6a464b86ac925d
UVM_INFO ../tb/apb_driver.sv(44) @ 2825: uvm_test_top.env.apb_agnt.driver [apb_driver] Driving Transaction: addr=c4a8 write=0 wdata = 0
UVM_INFO ../tb/apb_wr_rd_seq.sv(33) @ 2825: uvm_test_top.env.apb_agnt.sequencer@@seq [wr_rd_seq] WR→RD addr=0x0000c4a8 exp=0xaf6a464b86ac925d got=0xaf6a464b86ac925d
UVM_INFO /usr/synopsys/vcs-L-2016.06//etc/uvm-1.2/base/uvm_objection.svh(1270) @ 2825: reporter [TEST_DONE] 'run' phase is ready to proceed to the 'extract' phase
UVM_INFO ../tb/apb_coverage.sv(108) @ 2825: uvm_test_top.env.apb_cov [apb_coverage] REPORT PHASE CALLED
UVM_INFO ../tb/apb_coverage.sv(109) @ 2825: uvm_test_top.env.apb_cov [apb_coverage] 
===== FUNCTIONAL COVERAGE =====
       %
Overall: 37.92%
UVM_INFO ../tb/apb_scoreboard.sv(102) @ 2825: uvm_test_top.env.apb_scb [apb_scoreboard] ================ SCOREBOARD SUMMARY ================
UVM_INFO ../tb/apb_scoreboard.sv(103) @ 2825: uvm_test_top.env.apb_scb [apb_scoreboard]   WRITES = 20
UVM_INFO ../tb/apb_scoreboard.sv(104) @ 2825: uvm_test_top.env.apb_scb [apb_scoreboard]   READS  = 20
UVM_INFO ../tb/apb_scoreboard.sv(105) @ 2825: uvm_test_top.env.apb_scb [apb_scoreboard]   ERRORS = 0
UVM_INFO ../tb/apb_scoreboard.sv(106) @ 2825: uvm_test_top.env.apb_scb [apb_scoreboard] ====================================================
UVM_INFO ../tb/apb_base_test.sv(56) @ 2825: uvm_test_top [apb_wr_rd_test] ---------------------------------------
UVM_INFO ../tb/apb_base_test.sv(57) @ 2825: uvm_test_top [apb_wr_rd_test] ----           TEST PASS           ----
UVM_INFO ../tb/apb_base_test.sv(58) @ 2825: uvm_test_top [apb_wr_rd_test] ---------------------------------------
UVM_INFO /usr/synopsys/vcs-L-2016.06//etc/uvm-1.2/base/uvm_report_catcher.svh(705) @ 2825: reporter [UVM/REPORT/CATCHER] 
--- UVM Report catcher Summary ---


Number of demoted UVM_FATAL reports  :    0
Number of demoted UVM_ERROR reports  :    0
Number of demoted UVM_WARNING reports:    0
Number of caught UVM_FATAL reports   :    0
Number of caught UVM_ERROR reports   :    0
Number of caught UVM_WARNING reports :    0

UVM_INFO /usr/synopsys/vcs-L-2016.06//etc/uvm-1.2/base/uvm_report_server.svh(894) @ 2825: reporter [UVM/REPORT/SERVER] 
--- UVM Report Summary ---

** Report counts by severity
UVM_INFO :  203
UVM_WARNING :    0
UVM_ERROR :    0
UVM_FATAL :    0
** Report counts by id
[RNTST]     1
[TEST_DONE]     1
[UVM/RELNOTES]     1
[UVM/REPORT/CATCHER]     1
[apb_agent]     2
[apb_coverage]    42
[apb_driver]    42
[apb_env]     2
[apb_monitor]    40
[apb_scoreboard]    45
[apb_sequencer]     1
[apb_wr_rd_test]     5
[wr_rd_seq]    20

$finish called from file "/usr/synopsys/vcs-L-2016.06//etc/uvm-1.2/base/uvm_root.svh", line 527.
$finish at simulation time                 2825

---------------------------------------------------------------------------
VCS Coverage Metrics: during simulation line, cond, tgl was monitored
---------------------------------------------------------------------------

 Coverage status: End of All Coverages ...

           V C S   S i m u l a t i o n   R e p o r t 
Time: 2825
CPU Time:      2.240 seconds;       Data structure size:   0.5Mb
Mon Oct  5 01:33:01 2026
